T71D4 14648:150.247   SEGGER J-Link V6.60e Log File
T71D4 14648:150.355   DLL Compiled: Jan 17 2020 17:25:00
T71D4 14648:150.368   Logging started @ 2021-03-29 13:55
T71D4 14648:150.388 JLINK_SetWarnOutHandler(...)
T71D4 14648:150.398 - 0.015ms
T71D4 14648:150.413 JLINK_OpenEx(...)
T71D4 14648:151.460   Firmware: J-Link OB-SAM3U128-V2-NordicSemi compiled Feb  2 2021 16:47:20
T71D4 14648:152.867   Hardware: V1.00
T71D4 14648:152.911   S/N: 682623622
T71D4 14648:152.934   OEM: SEGGER
T71D4 14648:152.955   Feature(s): RDI, FlashBP, FlashDL, JFlash, GDB
T71D4 14648:154.009   TELNET listener socket opened on port 19021
T71D4 14648:154.517   WEBSRV Starting webserver
T71D4 14648:154.737   WEBSRV Webserver running on local port 19080
T71D4 14648:154.765 - 4.358ms returns "O.K."
T71D4 14648:154.810 JLINK_GetEmuCaps()
T71D4 14648:154.825 - 0.021ms returns 0xB8EA5A33
T71D4 14648:154.853 JLINK_TIF_GetAvailable(...)
T71D4 14648:155.086 - 0.246ms
T71D4 14648:155.138 JLINK_SetErrorOutHandler(...)
T71D4 14648:155.149 - 0.016ms
T71D4 14648:155.173 JLINK_ExecCommand("ProjectFile = "C:\nRF5_SDK_14.2.0_17b948a\examples\peripheral\PL57H56\pca10040\blank\arm5_no_packs\JLinkSettings.ini"", ...). 
T71D4 14648:166.874 - 11.725ms returns 0x00
T71D4 14648:167.246 JLINK_ExecCommand("Device = nRF52832_xxAA", ...). 
T71D4 14648:167.786   Device "NRF52832_XXAA" selected.
T71D4 14648:175.990 - 8.736ms returns 0x00
T71D4 14648:176.023 JLINK_ExecCommand("DisableConnectionTimeout", ...). 
T71D4 14648:176.043 - 0.010ms returns 0x01
T71D4 14648:176.067 JLINK_GetHardwareVersion()
T71D4 14648:176.078 - 0.015ms returns 0x2710
T71D4 14648:176.093 JLINK_GetDLLVersion()  returns 66005
T71D4 14648:176.112 JLINK_GetFirmwareString(...)
T71D4 14648:176.122 - 0.015ms
T71D4 14648:176.179 JLINK_GetDLLVersion()  returns 66005
T71D4 14648:176.195 JLINK_GetCompileDateTime()
T71D4 14648:176.205 - 0.015ms
T71D4 14648:176.226 JLINK_GetFirmwareString(...)
T71D4 14648:176.237 - 0.015ms
T71D4 14648:176.261 JLINK_GetHardwareVersion()
T71D4 14648:176.273 - 0.017ms returns 0x2710
T71D4 14648:176.323 JLINK_TIF_Select(JLINKARM_TIF_SWD)
T71D4 14648:177.155 - 0.845ms returns 0x00
T71D4 14648:177.191 JLINK_SetSpeed(5000)
T71D4 14648:177.330 - 0.151ms
T71D4 14648:177.358 JLINK_GetId()
T71D4 14648:177.577   InitTarget() start
T71D4 14648:177.599    J-Link Script File: Executing InitTarget()
T71D4 14648:181.324   InitTarget() end
T71D4 14648:182.190   Found SW-DP with ID 0x2BA01477
T71D4 14648:184.651   Scanning AP map to find all available APs
T71D4 14648:187.024   AP[2]: Stopped AP scan as end of AP map has been reached
T71D4 14648:187.055   AP[0]: AHB-AP (IDR: 0x24770011)
T71D4 14648:187.076   AP[1]: JTAG-AP (IDR: 0x02880000)
T71D4 14648:187.097   Iterating through AP map to find AHB-AP to use
T71D4 14648:190.542   AP[0]: Core found
T71D4 14648:190.569   AP[0]: AHB-AP ROM base: 0xE00FF000
T71D4 14648:192.059   CPUID register: 0x410FC241. Implementer code: 0x41 (ARM)
T71D4 14648:192.085   Found Cortex-M4 r0p1, Little endian.
T71D4 14648:293.797    -- Max. mem block: 0x00004720
T71D4 14648:293.961    -- CPU_ReadMem(4 bytes @ 0xE000EDF0)
T71D4 14648:295.021    -- CPU_WriteMem(4 bytes @ 0xE000EDF0)
T71D4 14648:295.857    -- CPU_ReadMem(4 bytes @ 0xE0002000)
T71D4 14648:296.768   FPUnit: 6 code (BP) slots and 2 literal slots
T71D4 14648:296.892    -- CPU_ReadMem(4 bytes @ 0xE000EDFC)
T71D4 14648:297.671    -- CPU_WriteMem(4 bytes @ 0xE000EDFC)
T71D4 14648:298.534    -- CPU_ReadMem(4 bytes @ 0xE0001000)
T71D4 14648:299.336    -- CPU_WriteMem(4 bytes @ 0xE0001000)
T71D4 14648:300.111    -- CPU_ReadMem(4 bytes @ 0xE000ED88)
T71D4 14648:300.883    -- CPU_WriteMem(4 bytes @ 0xE000ED88)
T71D4 14648:301.658    -- CPU_ReadMem(4 bytes @ 0xE000ED88)
T71D4 14648:302.444    -- CPU_WriteMem(4 bytes @ 0xE000ED88)
T71D4 14648:303.427   CoreSight components:
T71D4 14648:303.611   ROMTbl[0] @ E00FF000
T71D4 14648:303.703    -- CPU_ReadMem(16 bytes @ 0xE00FF000)
T71D4 14648:304.640    -- CPU_ReadMem(16 bytes @ 0xE000EFF0)
T71D4 14648:305.618    -- CPU_ReadMem(16 bytes @ 0xE000EFE0)
T71D4 14648:306.906   ROMTbl[0][0]: E000E000, CID: B105E00D, PID: 000BB00C SCS-M7
T71D4 14648:306.988    -- CPU_ReadMem(16 bytes @ 0xE0001FF0)
T71D4 14648:307.894    -- CPU_ReadMem(16 bytes @ 0xE0001FE0)
T71D4 14648:308.942   ROMTbl[0][1]: E0001000, CID: B105E00D, PID: 003BB002 DWT
T71D4 14648:309.037    -- CPU_ReadMem(16 bytes @ 0xE0002FF0)
T71D4 14648:309.995    -- CPU_ReadMem(16 bytes @ 0xE0002FE0)
T71D4 14648:311.046   ROMTbl[0][2]: E0002000, CID: B105E00D, PID: 002BB003 FPB
T71D4 14648:311.128    -- CPU_ReadMem(16 bytes @ 0xE0000FF0)
T71D4 14648:312.005    -- CPU_ReadMem(16 bytes @ 0xE0000FE0)
T71D4 14648:313.030   ROMTbl[0][3]: E0000000, CID: B105E00D, PID: 003BB001 ITM
T71D4 14648:313.128    -- CPU_ReadMem(16 bytes @ 0xE00FF010)
T71D4 14648:314.025    -- CPU_ReadMem(16 bytes @ 0xE0040FF0)
T71D4 14648:314.981    -- CPU_ReadMem(16 bytes @ 0xE0040FE0)
T71D4 14648:315.970   ROMTbl[0][4]: E0040000, CID: B105900D, PID: 000BB9A1 TPIU
T71D4 14648:316.039    -- CPU_ReadMem(16 bytes @ 0xE0041FF0)
T71D4 14648:316.931    -- CPU_ReadMem(16 bytes @ 0xE0041FE0)
T71D4 14648:317.866   ROMTbl[0][5]: E0041000, CID: B105900D, PID: 000BB925 ETM
T71D4 14648:318.368 - 141.048ms   returns 0x2BA01477
T71D4 14648:318.463 JLINK_GetDLLVersion()  returns 66005
T71D4 14648:318.688 JLINK_CORE_GetFound()
T71D4 14648:318.742 - 0.075ms returns 0xE0000FF
T71D4 14648:318.810 JLINK_GetDebugInfo(0x100 = JLINKARM_ROM_TABLE_ADDR_INDEX)
T71D4 14648:318.862   Value=0xE00FF000
T71D4 14648:318.919 - 0.130ms returns 0x00
T71D4 14648:319.016 JLINK_GetDebugInfo(0x100 = JLINKARM_ROM_TABLE_ADDR_INDEX)
T71D4 14648:319.062   Value=0xE00FF000
T71D4 14648:319.118 - 0.124ms returns 0x00
T71D4 14648:319.171 JLINK_GetDebugInfo(0x101 = JLINKARM_DEBUG_INFO_ETM_ADDR_INDEX)
T71D4 14648:319.213   Value=0xE0041000
T71D4 14648:319.268 - 0.118ms returns 0x00
T71D4 14648:319.332   JLINK_ReadMemEx(0xE0041FD0, 0x0020 Bytes, ..., Flags = 0x02000004)
T71D4 14648:319.414    -- CPU_ReadMem(32 bytes @ 0xE0041FD0)
T71D4 14648:320.572   Data:  04 00 00 00 00 00 00 00 00 00 00 00 00 00 00 00 ...
T71D4 14648:320.643 - 1.329ms returns 0x20
T71D4 14648:320.694 JLINK_GetDebugInfo(0x102 = JLINKARM_DEBUG_INFO_MTB_ADDR_INDEX)
T71D4 14648:320.727   Value=0x00000000
T71D4 14648:320.768 - 0.089ms returns 0x00
T71D4 14648:320.806 JLINK_GetDebugInfo(0x103 = JLINKARM_DEBUG_INFO_TPIU_ADDR_INDEX)
T71D4 14648:320.845   Value=0xE0040000
T71D4 14648:320.946 - 0.148ms returns 0x00
T71D4 14648:320.969 JLINK_GetDebugInfo(0x104 = JLINKARM_DEBUG_INFO_ITM_ADDR_INDEX)
T71D4 14648:320.988   Value=0xE0000000
T71D4 14648:321.012 - 0.051ms returns 0x00
T71D4 14648:321.034 JLINK_GetDebugInfo(0x105 = JLINKARM_DEBUG_INFO_DWT_ADDR_INDEX)
T71D4 14648:321.051   Value=0xE0001000
T71D4 14648:321.075 - 0.049ms returns 0x00
T71D4 14648:321.097 JLINK_GetDebugInfo(0x106 = JLINKARM_DEBUG_INFO_FPB_ADDR_INDEX)
T71D4 14648:321.114   Value=0xE0002000
T71D4 14648:321.138 - 0.049ms returns 0x00
T71D4 14648:321.160 JLINK_GetDebugInfo(0x107 = JLINKARM_DEBUG_INFO_NVIC_ADDR_INDEX)
T71D4 14648:321.178   Value=0xE000E000
T71D4 14648:321.202 - 0.050ms returns 0x00
T71D4 14648:321.224 JLINK_GetDebugInfo(0x10C = JLINKARM_DEBUG_INFO_DBG_ADDR_INDEX)
T71D4 14648:321.241   Value=0xE000EDF0
T71D4 14648:321.265 - 0.049ms returns 0x00
T71D4 14648:321.287 JLINK_GetDebugInfo(0x01 = Unknown)
T71D4 14648:321.304   Value=0x00000001
T71D4 14648:321.329 - 0.050ms returns 0x00
T71D4 14648:321.361   JLINK_ReadMemU32(0xE000ED00, 0x0001 Items, ...)
T71D4 14648:321.396    -- CPU_ReadMem(4 bytes @ 0xE000ED00)
T71D4 14648:321.992   Data:  41 C2 0F 41
T71D4 14648:322.034    - CPUID
T71D4 14648:322.059 - 0.708ms returns 1
T71D4 14648:322.090 JLINK_GetDebugInfo(0x10F = JLINKARM_DEBUG_INFO_HAS_CORTEX_M_SECURITY_EXT_INDEX)
T71D4 14648:322.110   Value=0x00000000
T71D4 14648:322.135 - 0.054ms returns 0x00
T71D4 14648:322.173 JLINK_SetResetType(JLINKARM_CM3_RESET_TYPE_NORMAL)
T71D4 14648:322.192 - 0.028ms returns JLINKARM_CM3_RESET_TYPE_NORMAL
T71D4 14648:322.217 JLINK_Reset()
T71D4 14648:322.255   CPU is running
T71D4 14648:322.284    -- CPU_WriteMem(4 bytes @ 0xE000EDF0)
T71D4 14648:322.890   CPU is running
T71D4 14648:322.944    -- CPU_WriteMem(4 bytes @ 0xE000EDFC)
T71D4 14648:323.609   Reset: Halt core after reset via DEMCR.VC_CORERESET.
T71D4 14648:324.257   Reset: Reset device via AIRCR.SYSRESETREQ.
T71D4 14648:324.299   CPU is running
T71D4 14648:324.330    -- CPU_WriteMem(4 bytes @ 0xE000ED0C)
T71D4 14648:377.799    -- CPU_ReadMem(4 bytes @ 0xE000EDF0)
T71D4 14648:378.639    -- CPU_ReadMem(4 bytes @ 0xE000EDF0)
T71D4 14648:379.494   CPU is running
T71D4 14648:379.563    -- CPU_WriteMem(4 bytes @ 0xE000EDF0)
T71D4 14648:380.386   CPU is running
T71D4 14648:380.455    -- CPU_WriteMem(4 bytes @ 0xE000EDFC)
T71D4 14648:386.375    -- CPU_ReadMem(4 bytes @ 0xE000EDF0)
T71D4 14648:394.547    -- CPU_WriteMem(4 bytes @ 0xE0002000)
T71D4 14648:395.561    -- CPU_ReadMem(4 bytes @ 0xE000EDFC)
T71D4 14648:396.621    -- CPU_ReadMem(4 bytes @ 0xE0001000)
T71D4 14648:397.486 - 75.321ms
T71D4 14648:397.903 JLINK_ReadReg(R15 (PC))
T71D4 14648:397.971 - 0.088ms returns 0x00000214
T71D4 14648:398.018 JLINK_ReadReg(XPSR)
T71D4 14648:398.055 - 0.054ms returns 0x01000000
T71D4 14648:398.109 JLINK_Halt()
T71D4 14648:398.142 - 0.050ms returns 0x00
T71D4 14648:398.190   JLINK_ReadMemU32(0xE000EDF0, 0x0001 Items, ...)
T71D4 14648:398.255    -- CPU_ReadMem(4 bytes @ 0xE000EDF0)
T71D4 14648:399.213   Data:  03 00 03 00
T71D4 14648:399.312    - DHCSR
T71D4 14648:399.360 - 1.190ms returns 1
T71D4 14648:399.480   JLINK_WriteU32(0xE000EDF0, 0xA05F0003)
T71D4 14648:399.538    - DHCSR
T71D4 14648:399.623    -- CPU_WriteMem(4 bytes @ 0xE000EDF0)
T71D4 14648:400.605 - 1.192ms returns 0
T71D4 14648:400.719   JLINK_WriteU32(0xE000EDFC, 0x01000000)
T71D4 14648:400.773    - DEMCR
T71D4 14648:400.850    -- CPU_WriteMem(4 bytes @ 0xE000EDFC)
T71D4 14648:401.865 - 1.212ms returns 0
T71D4 14648:402.115 JLINK_GetHWStatus(...)
T71D4 14648:402.600 - 0.533ms returns 0x00
T71D4 14648:402.811 JLINK_GetNumBPUnits(Type = 0xFFFFFF00)
T71D4 14648:402.855 - 0.060ms returns 0x06
T71D4 14648:402.898 JLINK_GetNumBPUnits(Type = 0xF0)
T71D4 14648:402.930 - 0.047ms returns 0x2000
T71D4 14648:402.975 JLINK_GetNumWPUnits()
T71D4 14648:403.007 - 0.047ms returns 0x04
T71D4 14648:403.106 JLINK_GetSpeed()
T71D4 14648:403.142 - 0.052ms returns 0x3E8
T71D4 14648:403.310   JLINK_ReadMemU32(0xE000E004, 0x0001 Items, ...)
T71D4 14648:403.432    -- CPU_ReadMem(4 bytes @ 0xE000E004)
T71D4 14648:404.441   Data:  01 00 00 00
T71D4 14648:404.539 - 1.250ms returns 1
T71D4 14648:404.603   JLINK_ReadMemU32(0xE000E004, 0x0001 Items, ...)
T71D4 14648:404.674    -- CPU_ReadMem(4 bytes @ 0xE000E004)
T71D4 14648:405.636   Data:  01 00 00 00
T71D4 14648:405.735 - 1.152ms returns 1
T71D4 14648:405.818 JLINK_WriteMemEx(0xE0001000, 0x001C Bytes, ..., Flags = 0x02000004)
T71D4 14648:405.858   Data:  01 00 00 00 00 00 00 00 00 00 00 00 00 00 00 00 ...
T71D4 14648:408.136    -- CPU_WriteMem(28 bytes @ 0xE0001000)
T71D4 14648:409.483 - 3.730ms returns 0x1C
T71D4 14648:409.657 JLINK_ReadReg(R15 (PC))
T71D4 14648:409.707 - 0.069ms returns 0x00000214
T71D4 14648:409.752 JLINK_ReadReg(XPSR)
T71D4 14648:409.786 - 0.050ms returns 0x01000000
T71D4 14648:428.070   JLINK_ReadMemEx(0xE0001004, 0x0004 Bytes, ..., Flags = 0x02000000)
T71D4 14648:428.192   Data:  00 00 00 00
T71D4 14648:428.235    - DWT_CYCCNT
T71D4 14648:428.275 - 0.223ms returns 0x04
T71D4 14648:531.438 JLINK_SetResetType(JLINKARM_CM3_RESET_TYPE_NORMAL)
T71D4 14648:531.509 - 0.086ms returns JLINKARM_CM3_RESET_TYPE_NORMAL
T71D4 14648:531.549 JLINK_Reset()
T71D4 14648:531.604    -- CPU_WriteMem(4 bytes @ 0xE000EDF0)
T71D4 14648:532.589    -- CPU_WriteMem(4 bytes @ 0xE000EDFC)
T71D4 14648:533.655   Reset: Halt core after reset via DEMCR.VC_CORERESET.
T71D4 14648:534.639   Reset: Reset device via AIRCR.SYSRESETREQ.
T71D4 14648:534.736    -- CPU_WriteMem(4 bytes @ 0xE000ED0C)
T71D4 14648:588.057    -- CPU_ReadMem(4 bytes @ 0xE000EDF0)
T71D4 14648:589.061    -- CPU_ReadMem(4 bytes @ 0xE000EDF0)
T71D4 14648:590.105    -- CPU_WriteMem(4 bytes @ 0xE000EDF0)
T71D4 14648:591.152    -- CPU_WriteMem(4 bytes @ 0xE000EDFC)
T71D4 14648:597.227    -- CPU_ReadMem(4 bytes @ 0xE000EDF0)
T71D4 14648:605.200    -- CPU_WriteMem(4 bytes @ 0xE0002000)
T71D4 14648:606.261    -- CPU_ReadMem(4 bytes @ 0xE000EDFC)
T71D4 14648:607.314    -- CPU_ReadMem(4 bytes @ 0xE0001000)
T71D4 14648:608.366 - 76.882ms
T71D4 14648:608.745 JLINK_ReadReg(R15 (PC))
T71D4 14648:608.821 - 0.097ms returns 0x00000214
T71D4 14648:608.869 JLINK_ReadReg(XPSR)
T71D4 14648:608.905 - 0.053ms returns 0x01000000
T71D4 14648:610.459   JLINK_ReadMemEx(0x00000200, 0x003C Bytes, ..., Flags = 0x02000000)
T71D4 14648:610.549    -- CPU_ReadMem(64 bytes @ 0x00000200)
T71D4 14648:612.312    -- Updating C cache (64 bytes @ 0x00000200)
T71D4 14648:612.442    -- Read from C cache (60 bytes @ 0x00000200)
T71D4 14648:612.508   Data:  DF F8 0C D0 00 F0 18 F8 00 48 00 47 15 0B 00 00 ...
T71D4 14648:612.581 - 2.150ms returns 0x3C
T71D4 14648:612.668   JLINK_ReadMemEx(0x00000200, 0x0002 Bytes, ..., Flags = 0x02000000)
T71D4 14648:612.746    -- Read from C cache (2 bytes @ 0x00000200)
T71D4 14648:612.820   Data:  DF F8
T71D4 14648:612.887 - 0.253ms returns 0x02
T71D4 14648:612.961   JLINK_ReadMemEx(0x00000202, 0x0002 Bytes, ..., Flags = 0x02000000)
T71D4 14648:613.034    -- Read from C cache (2 bytes @ 0x00000202)
T71D4 14648:613.102   Data:  0C D0
T71D4 14648:613.167 - 0.255ms returns 0x02
T71D4 14648:613.264   JLINK_ReadMemEx(0x00000204, 0x003C Bytes, ..., Flags = 0x02000000)
T71D4 14648:613.327    -- Read from C cache (60 bytes @ 0x00000204)
T71D4 14648:613.392   Data:  00 F0 18 F8 00 48 00 47 15 0B 00 00 F0 21 00 20 ...
T71D4 14648:613.451 - 0.210ms returns 0x3C
T71D4 14648:613.510   JLINK_ReadMemEx(0x00000204, 0x0002 Bytes, ..., Flags = 0x02000000)
T71D4 14648:613.578    -- Read from C cache (2 bytes @ 0x00000204)
T71D4 14648:613.635   Data:  00 F0
T71D4 14648:613.680 - 0.188ms returns 0x02
T71D4 14648:613.724   JLINK_ReadMemEx(0x00000206, 0x0002 Bytes, ..., Flags = 0x02000000)
T71D4 14648:613.790    -- Read from C cache (2 bytes @ 0x00000206)
T71D4 14648:613.846   Data:  18 F8
T71D4 14648:613.906 - 0.210ms returns 0x02
T71D4 14648:613.972   JLINK_ReadMemEx(0x00000208, 0x003C Bytes, ..., Flags = 0x02000000)
T71D4 14648:614.046    -- CPU_ReadMem(64 bytes @ 0x00000240)
T71D4 14648:615.959    -- Updating C cache (64 bytes @ 0x00000240)
T71D4 14648:616.053    -- Read from C cache (60 bytes @ 0x00000208)
T71D4 14648:616.108   Data:  00 48 00 47 15 0B 00 00 F0 21 00 20 06 48 80 47 ...
T71D4 14648:616.156 - 2.203ms returns 0x3C
T71D4 14648:616.214   JLINK_ReadMemEx(0x00000208, 0x0002 Bytes, ..., Flags = 0x02000000)
T71D4 14648:616.269    -- Read from C cache (2 bytes @ 0x00000208)
T71D4 14648:616.317   Data:  00 48
T71D4 14648:616.364 - 0.170ms returns 0x02
T71D4 14648:616.414   JLINK_ReadMemEx(0x0000020A, 0x0002 Bytes, ..., Flags = 0x02000000)
T71D4 14648:616.464    -- Read from C cache (2 bytes @ 0x0000020A)
T71D4 14648:616.518   Data:  00 47
T71D4 14648:616.566 - 0.171ms returns 0x02
T71D4 14648:616.617   JLINK_ReadMemEx(0x0000020A, 0x0002 Bytes, ..., Flags = 0x02000000)
T71D4 14648:616.667    -- Read from C cache (2 bytes @ 0x0000020A)
T71D4 14648:616.714   Data:  00 47
T71D4 14648:616.761 - 0.163ms returns 0x02
T71D4 14648:616.806   JLINK_ReadMemEx(0x0000020C, 0x003C Bytes, ..., Flags = 0x02000000)
T71D4 14648:616.856    -- Read from C cache (60 bytes @ 0x0000020C)
T71D4 14648:616.907   Data:  15 0B 00 00 F0 21 00 20 06 48 80 47 06 48 00 47 ...
T71D4 14648:616.953 - 0.165ms returns 0x3C
T71D4 14648:616.998   JLINK_ReadMemEx(0x0000020C, 0x0002 Bytes, ..., Flags = 0x02000000)
T71D4 14648:617.047    -- Read from C cache (2 bytes @ 0x0000020C)
T71D4 14648:617.094   Data:  15 0B
T71D4 14648:617.141 - 0.162ms returns 0x02
T71D4 14648:617.198   JLINK_ReadMemEx(0x00000212, 0x0002 Bytes, ..., Flags = 0x02000000)
T71D4 14648:617.247    -- Read from C cache (2 bytes @ 0x00000212)
T71D4 14648:617.449   Data:  00 20
T71D4 14648:617.521 - 0.354ms returns 0x02
T71D4 14648:617.582   JLINK_ReadMemEx(0x00000214, 0x003C Bytes, ..., Flags = 0x02000000)
T71D4 14648:617.633    -- Read from C cache (60 bytes @ 0x00000214)
T71D4 14648:617.683   Data:  06 48 80 47 06 48 00 47 FE E7 FE E7 FE E7 FE E7 ...
T71D4 14648:617.728 - 0.164ms returns 0x3C
T71D4 14648:617.771   JLINK_ReadMemEx(0x00000214, 0x0002 Bytes, ..., Flags = 0x02000000)
T71D4 14648:617.818    -- Read from C cache (2 bytes @ 0x00000214)
T71D4 14648:617.864   Data:  06 48
T71D4 14648:617.909 - 0.156ms returns 0x02
T71D4 14648:617.983   JLINK_ReadMemEx(0x00000214, 0x003C Bytes, ..., Flags = 0x02000000)
T71D4 14648:618.032    -- Read from C cache (60 bytes @ 0x00000214)
T71D4 14648:618.081   Data:  06 48 80 47 06 48 00 47 FE E7 FE E7 FE E7 FE E7 ...
T71D4 14648:618.125 - 0.160ms returns 0x3C
T71D4 14648:618.168   JLINK_ReadMemEx(0x00000214, 0x0002 Bytes, ..., Flags = 0x02000000)
T71D4 14648:618.215    -- Read from C cache (2 bytes @ 0x00000214)
T71D4 14648:618.261   Data:  06 48
T71D4 14648:618.306 - 0.155ms returns 0x02
T71D4 14648:618.348   JLINK_ReadMemEx(0x00000216, 0x0002 Bytes, ..., Flags = 0x02000000)
T71D4 14648:618.395    -- Read from C cache (2 bytes @ 0x00000216)
T71D4 14648:618.441   Data:  80 47
T71D4 14648:618.494 - 0.163ms returns 0x02
T71D4 14648:618.553   JLINK_ReadMemEx(0x00000216, 0x0002 Bytes, ..., Flags = 0x02000000)
T71D4 14648:618.602    -- Read from C cache (2 bytes @ 0x00000216)
T71D4 14648:618.647   Data:  80 47
T71D4 14648:618.692 - 0.156ms returns 0x02
T71D4 14648:618.735   JLINK_ReadMemEx(0x00000218, 0x003C Bytes, ..., Flags = 0x02000000)
T71D4 14648:618.782    -- Read from C cache (60 bytes @ 0x00000218)
T71D4 14648:618.831   Data:  06 48 00 47 FE E7 FE E7 FE E7 FE E7 FE E7 FE E7 ...
T71D4 14648:618.875 - 0.158ms returns 0x3C
T71D4 14648:618.917   JLINK_ReadMemEx(0x00000218, 0x0002 Bytes, ..., Flags = 0x02000000)
T71D4 14648:618.964    -- Read from C cache (2 bytes @ 0x00000218)
T71D4 14648:619.010   Data:  06 48
T71D4 14648:619.055 - 0.155ms returns 0x02
T71D4 14648:619.108   JLINK_ReadMemEx(0x00000218, 0x003C Bytes, ..., Flags = 0x02000000)
T71D4 14648:619.156    -- Read from C cache (60 bytes @ 0x00000218)
T71D4 14648:619.204   Data:  06 48 00 47 FE E7 FE E7 FE E7 FE E7 FE E7 FE E7 ...
T71D4 14648:619.249 - 0.159ms returns 0x3C
T71D4 14648:619.291   JLINK_ReadMemEx(0x00000218, 0x0002 Bytes, ..., Flags = 0x02000000)
T71D4 14648:619.338    -- Read from C cache (2 bytes @ 0x00000218)
T71D4 14648:619.401   Data:  06 48
T71D4 14648:619.441 - 0.164ms returns 0x02
T71D4 14648:619.478   JLINK_ReadMemEx(0x0000021A, 0x0002 Bytes, ..., Flags = 0x02000000)
T71D4 14648:619.522    -- Read from C cache (2 bytes @ 0x0000021A)
T71D4 14648:619.562   Data:  00 47
T71D4 14648:619.602 - 0.139ms returns 0x02
T71D4 14648:908.756   JLINK_ReadMemEx(0x40009000, 0x0010 Bytes, ..., Flags = 0x02000004)
T71D4 14648:908.803    -- CPU_ReadMem(16 bytes @ 0x40009000)
T71D4 14648:909.622   Data:  00 00 00 00 00 00 00 00 00 00 00 00 00 00 00 00
T71D4 14648:909.649 - 0.900ms returns 0x10
T71D4 14648:909.671   JLINK_ReadMemEx(0x40009010, 0x0004 Bytes, ..., Flags = 0x02000004)
T71D4 14648:909.693    -- CPU_ReadMem(4 bytes @ 0x40009010)
T71D4 14648:910.361   Data:  00 00 00 00
T71D4 14648:910.381 - 0.716ms returns 0x04
T71D4 14648:910.401   JLINK_ReadMemEx(0x40009040, 0x0014 Bytes, ..., Flags = 0x02000004)
T71D4 14648:910.421    -- CPU_ReadMem(20 bytes @ 0x40009040)
T71D4 14648:911.143   Data:  00 00 00 00 00 00 00 00 00 00 00 00 00 00 00 00 ...
T71D4 14648:911.163 - 0.770ms returns 0x14
T71D4 14648:911.187   JLINK_ReadMemEx(0x40009054, 0x0004 Bytes, ..., Flags = 0x02000004)
T71D4 14648:911.218    -- CPU_ReadMem(4 bytes @ 0x40009054)
T71D4 14648:911.774   Data:  00 00 00 00
T71D4 14648:911.798 - 0.618ms returns 0x04
T71D4 14648:911.819   JLINK_ReadMemEx(0x40009140, 0x0014 Bytes, ..., Flags = 0x02000004)
T71D4 14648:911.839    -- CPU_ReadMem(20 bytes @ 0x40009140)
T71D4 14648:912.587   Data:  00 00 00 00 00 00 00 00 00 00 00 00 00 00 00 00 ...
T71D4 14648:912.617 - 0.804ms returns 0x14
T71D4 14648:912.638   JLINK_ReadMemEx(0x40009154, 0x0004 Bytes, ..., Flags = 0x02000004)
T71D4 14648:912.658    -- CPU_ReadMem(4 bytes @ 0x40009154)
T71D4 14648:913.212   Data:  00 00 00 00
T71D4 14648:913.236 - 0.605ms returns 0x04
T71D4 14648:913.256   JLINK_ReadMemEx(0x40009200, 0x0004 Bytes, ..., Flags = 0x02000004)
T71D4 14648:913.277    -- CPU_ReadMem(4 bytes @ 0x40009200)
T71D4 14648:913.922   Data:  00 00 00 00
T71D4 14648:913.944 - 0.694ms returns 0x04
T71D4 14648:913.963   JLINK_ReadMemEx(0x40009304, 0x0004 Bytes, ..., Flags = 0x02000004)
T71D4 14648:913.983    -- CPU_ReadMem(4 bytes @ 0x40009304)
T71D4 14648:914.585   Data:  00 00 00 00
T71D4 14648:914.606 - 0.648ms returns 0x04
T71D4 14648:914.624   JLINK_ReadMemEx(0x40009308, 0x0004 Bytes, ..., Flags = 0x02000004)
T71D4 14648:914.643    -- CPU_ReadMem(4 bytes @ 0x40009308)
T71D4 14648:915.263   Data:  00 00 00 00
T71D4 14648:915.282 - 0.663ms returns 0x04
T71D4 14648:915.300   JLINK_ReadMemEx(0x40009504, 0x0004 Bytes, ..., Flags = 0x02000004)
T71D4 14648:915.319    -- CPU_ReadMem(4 bytes @ 0x40009504)
T71D4 14648:915.942   Data:  00 00 00 00
T71D4 14648:915.961 - 0.666ms returns 0x04
T71D4 14648:915.982   JLINK_ReadMemEx(0x40009508, 0x0004 Bytes, ..., Flags = 0x02000004)
T71D4 14648:916.001    -- CPU_ReadMem(4 bytes @ 0x40009508)
T71D4 14648:916.569   Data:  00 00 00 00
T71D4 14648:916.588 - 0.612ms returns 0x04
T71D4 14648:916.609   JLINK_ReadMemEx(0x40009510, 0x0004 Bytes, ..., Flags = 0x02000004)
T71D4 14648:916.627    -- CPU_ReadMem(4 bytes @ 0x40009510)
T71D4 14648:917.135   Data:  04 00 00 00
T71D4 14648:917.154 - 0.551ms returns 0x04
T71D4 14648:917.175   JLINK_ReadMemEx(0x40009540, 0x0014 Bytes, ..., Flags = 0x02000004)
T71D4 14648:917.193    -- CPU_ReadMem(20 bytes @ 0x40009540)
T71D4 14648:917.989   Data:  00 00 00 00 00 00 00 00 00 00 00 00 00 00 00 00 ...
T71D4 14648:918.008 - 0.839ms returns 0x14
T71D4 14648:918.029   JLINK_ReadMemEx(0x40009554, 0x0004 Bytes, ..., Flags = 0x02000004)
T71D4 14648:918.048    -- CPU_ReadMem(4 bytes @ 0x40009554)
T71D4 14648:918.611   Data:  00 00 00 00
T71D4 14648:918.630 - 0.606ms returns 0x04
T71D4 14651:124.113   JLINK_ReadMemEx(0x00000212, 0x0002 Bytes, ..., Flags = 0x02000000)
T71D4 14651:124.161    -- Read from C cache (2 bytes @ 0x00000212)
T71D4 14651:124.178   Data:  00 20
T71D4 14651:124.193 - 0.088ms returns 0x02
T71D4 14651:124.209   JLINK_ReadMemEx(0x00000214, 0x003C Bytes, ..., Flags = 0x02000000)
T71D4 14651:124.224    -- Read from C cache (60 bytes @ 0x00000214)
T71D4 14651:124.240   Data:  06 48 80 47 06 48 00 47 FE E7 FE E7 FE E7 FE E7 ...
T71D4 14651:124.253 - 0.049ms returns 0x3C
T71D4 14651:124.267   JLINK_ReadMemEx(0x00000214, 0x0002 Bytes, ..., Flags = 0x02000000)
T71D4 14651:124.281    -- Read from C cache (2 bytes @ 0x00000214)
T71D4 14651:124.296   Data:  06 48
T71D4 14651:124.311 - 0.049ms returns 0x02
T71D4 14651:124.337   JLINK_ReadMemEx(0x00000214, 0x003C Bytes, ..., Flags = 0x02000000)
T71D4 14651:124.352    -- Read from C cache (60 bytes @ 0x00000214)
T71D4 14651:124.367   Data:  06 48 80 47 06 48 00 47 FE E7 FE E7 FE E7 FE E7 ...
T71D4 14651:124.384 - 0.052ms returns 0x3C
T71D4 14651:124.397   JLINK_ReadMemEx(0x00000214, 0x0002 Bytes, ..., Flags = 0x02000000)
T71D4 14651:124.412    -- Read from C cache (2 bytes @ 0x00000214)
T71D4 14651:124.426   Data:  06 48
T71D4 14651:124.440 - 0.047ms returns 0x02
T71D4 14651:124.453   JLINK_ReadMemEx(0x00000216, 0x0002 Bytes, ..., Flags = 0x02000000)
T71D4 14651:124.467    -- Read from C cache (2 bytes @ 0x00000216)
T71D4 14651:124.481   Data:  80 47
T71D4 14651:124.495 - 0.047ms returns 0x02
T71D4 14651:124.514   JLINK_ReadMemEx(0x00000216, 0x0002 Bytes, ..., Flags = 0x02000000)
T71D4 14651:124.528    -- Read from C cache (2 bytes @ 0x00000216)
T71D4 14651:124.542   Data:  80 47
T71D4 14651:124.556 - 0.047ms returns 0x02
T71D4 14651:124.569   JLINK_ReadMemEx(0x00000218, 0x003C Bytes, ..., Flags = 0x02000000)
T71D4 14651:124.591    -- Read from C cache (60 bytes @ 0x00000218)
T71D4 14651:124.606   Data:  06 48 00 47 FE E7 FE E7 FE E7 FE E7 FE E7 FE E7 ...
T71D4 14651:124.620 - 0.056ms returns 0x3C
T71D4 14651:124.633   JLINK_ReadMemEx(0x00000218, 0x0002 Bytes, ..., Flags = 0x02000000)
T71D4 14651:124.648    -- Read from C cache (2 bytes @ 0x00000218)
T71D4 14651:124.661   Data:  06 48
T71D4 14651:124.675 - 0.047ms returns 0x02
T71D4 14651:124.692   JLINK_ReadMemEx(0x00000218, 0x003C Bytes, ..., Flags = 0x02000000)
T71D4 14651:124.707    -- Read from C cache (60 bytes @ 0x00000218)
T71D4 14651:124.722   Data:  06 48 00 47 FE E7 FE E7 FE E7 FE E7 FE E7 FE E7 ...
T71D4 14651:124.735 - 0.048ms returns 0x3C
T71D4 14651:124.748   JLINK_ReadMemEx(0x00000218, 0x0002 Bytes, ..., Flags = 0x02000000)
T71D4 14651:124.763    -- Read from C cache (2 bytes @ 0x00000218)
T71D4 14651:124.776   Data:  06 48
T71D4 14651:124.790 - 0.047ms returns 0x02
T71D4 14651:124.803   JLINK_ReadMemEx(0x0000021A, 0x0002 Bytes, ..., Flags = 0x02000000)
T71D4 14651:124.818    -- Read from C cache (2 bytes @ 0x0000021A)
T71D4 14651:124.832   Data:  00 47
T71D4 14651:124.845 - 0.047ms returns 0x02
T71D4 14651:614.600 JLINK_ReadReg(R0)
T71D4 14651:615.251 - 0.669ms returns 0x00000000
T71D4 14651:615.284 JLINK_ReadReg(R1)
T71D4 14651:615.299 - 0.023ms returns 0x00000000
T71D4 14651:615.318 JLINK_ReadReg(R2)
T71D4 14651:615.335 - 0.022ms returns 0x00000000
T71D4 14651:615.349 JLINK_ReadReg(R3)
T71D4 14651:615.362 - 0.019ms returns 0x00000000
T71D4 14651:615.379 JLINK_ReadReg(R4)
T71D4 14651:615.394 - 0.021ms returns 0x00000000
T71D4 14651:615.411 JLINK_ReadReg(R5)
T71D4 14651:615.425 - 0.020ms returns 0x00000000
T71D4 14651:615.441 JLINK_ReadReg(R6)
T71D4 14651:615.452 - 0.017ms returns 0x00000000
T71D4 14651:615.468 JLINK_ReadReg(R7)
T71D4 14651:615.483 - 0.022ms returns 0x00000000
T71D4 14651:615.502 JLINK_ReadReg(R8)
T71D4 14651:615.518 - 0.022ms returns 0x00000000
T71D4 14651:615.536 JLINK_ReadReg(R9)
T71D4 14651:615.550 - 0.020ms returns 0x00000000
T71D4 14651:615.568 JLINK_ReadReg(R10)
T71D4 14651:615.578 - 0.015ms returns 0x00000000
T71D4 14651:615.591 JLINK_ReadReg(R11)
T71D4 14651:615.601 - 0.014ms returns 0x00000000
T71D4 14651:615.615 JLINK_ReadReg(R12)
T71D4 14651:615.629 - 0.020ms returns 0x00000000
T71D4 14651:615.643 JLINK_ReadReg(R13 (SP))
T71D4 14651:615.658 - 0.020ms returns 0x200021F0
T71D4 14651:615.675 JLINK_ReadReg(R14)
T71D4 14651:615.688 - 0.017ms returns 0xFFFFFFFF
T71D4 14651:615.703 JLINK_ReadReg(R15 (PC))
T71D4 14651:615.716 - 0.017ms returns 0x00000214
T71D4 14651:615.732 JLINK_ReadReg(XPSR)
T71D4 14651:615.744 - 0.017ms returns 0x01000000
T71D4 14651:615.757 JLINK_ReadReg(MSP)
T71D4 14651:615.769 - 0.018ms returns 0x200021F0
T71D4 14651:615.784 JLINK_ReadReg(PSP)
T71D4 14651:615.797 - 0.019ms returns 0x00000000
T71D4 14651:615.812 JLINK_ReadReg(CFBP)
T71D4 14651:615.827 - 0.020ms returns 0x00000000
T71D4 14651:615.842 JLINK_ReadReg(FPSCR)
T71D4 14651:626.099 - 10.278ms returns 0x00000000
T71D4 14651:626.134 JLINK_ReadReg(FPS0)
T71D4 14651:626.148 - 0.019ms returns 0x00000000
T71D4 14651:626.161 JLINK_ReadReg(FPS1)
T71D4 14651:626.172 - 0.015ms returns 0x00000000
T71D4 14651:626.185 JLINK_ReadReg(FPS2)
T71D4 14651:626.195 - 0.015ms returns 0x00000000
T71D4 14651:626.208 JLINK_ReadReg(FPS3)
T71D4 14651:626.219 - 0.015ms returns 0x00000000
T71D4 14651:626.232 JLINK_ReadReg(FPS4)
T71D4 14651:626.242 - 0.015ms returns 0x00000000
T71D4 14651:626.255 JLINK_ReadReg(FPS5)
T71D4 14651:626.265 - 0.015ms returns 0x00000000
T71D4 14651:626.278 JLINK_ReadReg(FPS6)
T71D4 14651:626.289 - 0.015ms returns 0x00000000
T71D4 14651:626.302 JLINK_ReadReg(FPS7)
T71D4 14651:626.312 - 0.015ms returns 0x00000000
T71D4 14651:626.325 JLINK_ReadReg(FPS8)
T71D4 14651:626.335 - 0.022ms returns 0x00000000
T71D4 14651:626.356 JLINK_ReadReg(FPS9)
T71D4 14651:626.366 - 0.015ms returns 0x00000000
T71D4 14651:626.379 JLINK_ReadReg(FPS10)
T71D4 14651:626.390 - 0.020ms returns 0x00000000
T71D4 14651:626.410 JLINK_ReadReg(FPS11)
T71D4 14651:626.420 - 0.015ms returns 0x00000000
T71D4 14651:626.433 JLINK_ReadReg(FPS12)
T71D4 14651:626.443 - 0.015ms returns 0x00000000
T71D4 14651:626.456 JLINK_ReadReg(FPS13)
T71D4 14651:626.466 - 0.015ms returns 0x00000000
T71D4 14651:626.479 JLINK_ReadReg(FPS14)
T71D4 14651:626.490 - 0.015ms returns 0x00000000
T71D4 14651:626.503 JLINK_ReadReg(FPS15)
T71D4 14651:626.513 - 0.015ms returns 0x00000000
T71D4 14651:626.526 JLINK_ReadReg(FPS16)
T71D4 14651:626.536 - 0.015ms returns 0x00000000
T71D4 14651:626.549 JLINK_ReadReg(FPS17)
T71D4 14651:626.559 - 0.015ms returns 0x00000000
T71D4 14651:626.572 JLINK_ReadReg(FPS18)
T71D4 14651:626.583 - 0.015ms returns 0x00000000
T71D4 14651:626.596 JLINK_ReadReg(FPS19)
T71D4 14651:626.606 - 0.015ms returns 0x00000000
T71D4 14651:626.619 JLINK_ReadReg(FPS20)
T71D4 14651:626.629 - 0.015ms returns 0x00000000
T71D4 14651:626.642 JLINK_ReadReg(FPS21)
T71D4 14651:626.652 - 0.015ms returns 0x00000000
T71D4 14651:626.665 JLINK_ReadReg(FPS22)
T71D4 14651:626.675 - 0.015ms returns 0x00000000
T71D4 14651:626.689 JLINK_ReadReg(FPS23)
T71D4 14651:626.699 - 0.015ms returns 0x00000000
T71D4 14651:626.712 JLINK_ReadReg(FPS24)
T71D4 14651:626.722 - 0.015ms returns 0x00000000
T71D4 14651:626.735 JLINK_ReadReg(FPS25)
T71D4 14651:626.746 - 0.015ms returns 0x00000000
T71D4 14651:626.759 JLINK_ReadReg(FPS26)
T71D4 14651:626.769 - 0.015ms returns 0x00000000
T71D4 14651:626.782 JLINK_ReadReg(FPS27)
T71D4 14651:626.792 - 0.015ms returns 0x00000000
T71D4 14651:626.805 JLINK_ReadReg(FPS28)
T71D4 14651:626.815 - 0.015ms returns 0x00000000
T71D4 14651:626.828 JLINK_ReadReg(FPS29)
T71D4 14651:626.838 - 0.015ms returns 0x00000000
T71D4 14651:626.851 JLINK_ReadReg(FPS30)
T71D4 14651:626.862 - 0.015ms returns 0x00000000
T71D4 14651:626.875 JLINK_ReadReg(FPS31)
T71D4 14651:626.885 - 0.015ms returns 0x00000000
T71D4 14651:697.096   JLINK_ReadMemEx(0x2000003C, 0x0004 Bytes, ..., Flags = 0x02000000)
T71D4 14651:697.159    -- CPU_ReadMem(64 bytes @ 0x20000000)
T71D4 14651:698.577    -- Updating C cache (64 bytes @ 0x20000000)
T71D4 14651:698.605    -- Read from C cache (4 bytes @ 0x2000003C)
T71D4 14651:698.621   Data:  00 24 F4 48
T71D4 14651:698.637 - 1.547ms returns 0x04
T71D4 14651:698.815   JLINK_ReadMemEx(0x2000003C, 0x0004 Bytes, ..., Flags = 0x02000000)
T71D4 14651:698.837    -- Read from C cache (4 bytes @ 0x2000003C)
T71D4 14651:698.851   Data:  00 24 F4 48
T71D4 14651:698.867 - 0.089ms returns 0x04
T71D4 14651:698.937   JLINK_ReadMemEx(0x2000003C, 0x0004 Bytes, ..., Flags = 0x02000000)
T71D4 14651:698.954    -- Read from C cache (4 bytes @ 0x2000003C)
T71D4 14651:698.968   Data:  00 24 F4 48
T71D4 14651:698.982 - 0.050ms returns 0x04
T71D4 14651:700.108   JLINK_ReadMemEx(0x00000000, 0x0004 Bytes, ..., Flags = 0x02000000)
T71D4 14651:700.150    -- CPU_ReadMem(64 bytes @ 0x00000000)
T71D4 14651:701.505    -- Updating C cache (64 bytes @ 0x00000000)
T71D4 14651:701.532    -- Read from C cache (4 bytes @ 0x00000000)
T71D4 14651:701.548   Data:  F0 21 00 20
T71D4 14651:701.564 - 1.463ms returns 0x04
T71D4 14651:701.640   JLINK_ReadMemEx(0x00000000, 0x0004 Bytes, ..., Flags = 0x02000000)
T71D4 14651:701.659    -- Read from C cache (4 bytes @ 0x00000000)
T71D4 14651:701.674   Data:  F0 21 00 20
T71D4 14651:701.688 - 0.054ms returns 0x04
T71D4 14651:701.728   JLINK_ReadMemEx(0x00000000, 0x0004 Bytes, ..., Flags = 0x02000000)
T71D4 14651:701.744    -- Read from C cache (4 bytes @ 0x00000000)
T71D4 14651:701.759   Data:  F0 21 00 20
T71D4 14651:701.773 - 0.051ms returns 0x04
T71D4 14651:715.473   JLINK_ReadMemEx(0x2000003C, 0x0004 Bytes, ..., Flags = 0x02000000)
T71D4 14651:715.518    -- Read from C cache (4 bytes @ 0x2000003C)
T71D4 14651:715.534   Data:  00 24 F4 48
T71D4 14651:715.552 - 0.085ms returns 0x04
T71D4 14651:715.599   JLINK_ReadMemEx(0x2000003C, 0x0004 Bytes, ..., Flags = 0x02000000)
T71D4 14651:715.616    -- Read from C cache (4 bytes @ 0x2000003C)
T71D4 14651:715.631   Data:  00 24 F4 48
T71D4 14651:715.714 - 0.120ms returns 0x04
T71D4 14651:715.751   JLINK_ReadMemEx(0x2000003C, 0x0004 Bytes, ..., Flags = 0x02000000)
T71D4 14651:715.769    -- Read from C cache (4 bytes @ 0x2000003C)
T71D4 14651:715.783   Data:  00 24 F4 48
T71D4 14651:715.797 - 0.051ms returns 0x04
T2CBC 14651:767.986   JLINK_ReadMemEx(0x00000214, 0x0002 Bytes, ..., Flags = 0x02000000)
T2CBC 14651:768.027    -- Read from C cache (2 bytes @ 0x00000214)
T2CBC 14651:768.043   Data:  06 48
T2CBC 14651:768.059 - 0.079ms returns 0x02
T2CBC 14651:768.095   JLINK_SetBPEx(Addr = 0x00000B14, Type = 0xFFFFFFF2)
T2CBC 14651:768.114 - 0.025ms returns 0x00000001
T2CBC 14651:768.136 JLINK_Go()
T2CBC 14651:768.196    -- CPU_WriteMem(4 bytes @ 0xE0002000)
T2CBC 14651:768.833    -- CPU_ReadMem(4 bytes @ 0xE0001000)
T2CBC 14651:769.398    -- CPU_WriteMem(4 bytes @ 0xE0002008)
T2CBC 14651:769.453    -- CPU_WriteMem(4 bytes @ 0xE000200C)
T2CBC 14651:769.479    -- CPU_WriteMem(4 bytes @ 0xE0002010)
T2CBC 14651:769.511    -- CPU_WriteMem(4 bytes @ 0xE0002014)
T2CBC 14651:769.547    -- CPU_WriteMem(4 bytes @ 0xE0002018)
T2CBC 14651:769.572    -- CPU_WriteMem(4 bytes @ 0xE000201C)
T2CBC 14651:772.241    -- CPU_WriteMem(4 bytes @ 0xE0001004)
T2CBC 14651:773.759 - 5.651ms
T2CBC 14651:874.551 JLINK_IsHalted()
T2CBC 14651:881.015 - 6.492ms returns TRUE
T2CBC 14651:881.062 JLINK_Halt()
T2CBC 14651:881.073 - 0.016ms returns 0x00
T2CBC 14651:881.088 JLINK_IsHalted()
T2CBC 14651:881.098 - 0.015ms returns TRUE
T2CBC 14651:881.111 JLINK_IsHalted()
T2CBC 14651:881.122 - 0.015ms returns TRUE
T2CBC 14651:881.135 JLINK_IsHalted()
T2CBC 14651:881.145 - 0.015ms returns TRUE
T2CBC 14651:881.162 JLINK_ReadReg(R15 (PC))
T2CBC 14651:881.176 - 0.019ms returns 0x00000B14
T2CBC 14651:881.190 JLINK_ReadReg(XPSR)
T2CBC 14651:881.201 - 0.015ms returns 0x61000000
T2CBC 14651:881.231 JLINK_ClrBPEx(BPHandle = 0x00000001)
T2CBC 14651:881.242 - 0.016ms returns 0x00
T2CBC 14651:881.262   JLINK_ReadMemU32(0xE000ED30, 0x0001 Items, ...)
T2CBC 14651:881.283    -- CPU_ReadMem(4 bytes @ 0xE000ED30)
T2CBC 14651:881.961   Data:  02 00 00 00
T2CBC 14651:881.981 - 0.725ms returns 1
T2CBC 14651:881.998   JLINK_ReadMemU32(0xE0001028, 0x0001 Items, ...)
T2CBC 14651:882.018    -- CPU_ReadMem(4 bytes @ 0xE0001028)
T2CBC 14651:882.649   Data:  00 00 00 00
T2CBC 14651:882.669    - DWT_FUNC[0]
T2CBC 14651:882.684 - 0.691ms returns 1
T2CBC 14651:882.701   JLINK_ReadMemU32(0xE0001038, 0x0001 Items, ...)
T2CBC 14651:882.719    -- CPU_ReadMem(4 bytes @ 0xE0001038)
T2CBC 14651:883.335   Data:  00 02 00 00
T2CBC 14651:883.355    - DWT_FUNC[1]
T2CBC 14651:883.369 - 0.674ms returns 1
T2CBC 14651:883.385   JLINK_ReadMemU32(0xE0001048, 0x0001 Items, ...)
T2CBC 14651:883.404    -- CPU_ReadMem(4 bytes @ 0xE0001048)
T2CBC 14651:884.031   Data:  00 00 00 00
T2CBC 14651:884.051    - DWT_FUNC[2]
T2CBC 14651:884.065 - 0.685ms returns 1
T2CBC 14651:884.082   JLINK_ReadMemU32(0xE0001058, 0x0001 Items, ...)
T2CBC 14651:884.101    -- CPU_ReadMem(4 bytes @ 0xE0001058)
T2CBC 14651:884.714   Data:  00 00 00 00
T2CBC 14651:884.733    - DWT_FUNC[3]
T2CBC 14651:884.747 - 0.671ms returns 1
T2CBC 14651:884.818 JLINK_ReadReg(R0)
T2CBC 14651:884.831 - 0.018ms returns 0x00000B15
T2CBC 14651:884.845 JLINK_ReadReg(R1)
T2CBC 14651:884.855 - 0.015ms returns 0x200021F0
T2CBC 14651:884.868 JLINK_ReadReg(R2)
T2CBC 14651:884.878 - 0.015ms returns 0x00000000
T2CBC 14651:884.891 JLINK_ReadReg(R3)
T2CBC 14651:884.901 - 0.014ms returns 0x00000785
T2CBC 14651:884.914 JLINK_ReadReg(R4)
T2CBC 14651:884.924 - 0.015ms returns 0x000011A0
T2CBC 14651:884.937 JLINK_ReadReg(R5)
T2CBC 14651:884.947 - 0.015ms returns 0x000011A0
T2CBC 14651:884.960 JLINK_ReadReg(R6)
T2CBC 14651:884.970 - 0.015ms returns 0x00000000
T2CBC 14651:884.983 JLINK_ReadReg(R7)
T2CBC 14651:884.993 - 0.015ms returns 0x00000000
T2CBC 14651:885.006 JLINK_ReadReg(R8)
T2CBC 14651:885.016 - 0.015ms returns 0x00000000
T2CBC 14651:885.030 JLINK_ReadReg(R9)
T2CBC 14651:885.040 - 0.015ms returns 0x00000000
T2CBC 14651:885.057 JLINK_ReadReg(R10)
T2CBC 14651:885.070 - 0.017ms returns 0x00000000
T2CBC 14651:885.082 JLINK_ReadReg(R11)
T2CBC 14651:885.092 - 0.015ms returns 0x00000000
T2CBC 14651:885.105 JLINK_ReadReg(R12)
T2CBC 14651:885.115 - 0.015ms returns 0x00000000
T2CBC 14651:885.128 JLINK_ReadReg(R13 (SP))
T2CBC 14651:885.138 - 0.015ms returns 0x200021F0
T2CBC 14651:885.151 JLINK_ReadReg(R14)
T2CBC 14651:885.161 - 0.015ms returns 0x00000255
T2CBC 14651:885.174 JLINK_ReadReg(R15 (PC))
T2CBC 14651:885.185 - 0.015ms returns 0x00000B14
T2CBC 14651:885.198 JLINK_ReadReg(XPSR)
T2CBC 14651:885.208 - 0.015ms returns 0x61000000
T2CBC 14651:885.221 JLINK_ReadReg(MSP)
T2CBC 14651:885.231 - 0.015ms returns 0x200021F0
T2CBC 14651:885.244 JLINK_ReadReg(PSP)
T2CBC 14651:885.254 - 0.015ms returns 0x00000000
T2CBC 14651:885.267 JLINK_ReadReg(CFBP)
T2CBC 14651:885.277 - 0.015ms returns 0x00000000
T2CBC 14651:885.290 JLINK_ReadReg(FPSCR)
T2CBC 14651:895.388 - 10.110ms returns 0x00000000
T2CBC 14651:895.415 JLINK_ReadReg(FPS0)
T2CBC 14651:895.428 - 0.018ms returns 0x00000000
T2CBC 14651:895.444 JLINK_ReadReg(FPS1)
T2CBC 14651:895.454 - 0.015ms returns 0x00000000
T2CBC 14651:895.470 JLINK_ReadReg(FPS2)
T2CBC 14651:895.485 - 0.027ms returns 0x00000000
T2CBC 14651:895.515 JLINK_ReadReg(FPS3)
T2CBC 14651:895.528 - 0.018ms returns 0x00000000
T2CBC 14651:895.543 JLINK_ReadReg(FPS4)
T2CBC 14651:895.553 - 0.015ms returns 0x00000000
T2CBC 14651:895.566 JLINK_ReadReg(FPS5)
T2CBC 14651:895.576 - 0.014ms returns 0x00000000
T2CBC 14651:895.589 JLINK_ReadReg(FPS6)
T2CBC 14651:895.598 - 0.015ms returns 0x00000000
T2CBC 14651:895.613 JLINK_ReadReg(FPS7)
T2CBC 14651:895.623 - 0.014ms returns 0x00000000
T2CBC 14651:895.635 JLINK_ReadReg(FPS8)
T2CBC 14651:895.645 - 0.014ms returns 0x00000000
T2CBC 14651:895.658 JLINK_ReadReg(FPS9)
T2CBC 14651:895.667 - 0.014ms returns 0x00000000
T2CBC 14651:895.682 JLINK_ReadReg(FPS10)
T2CBC 14651:895.691 - 0.014ms returns 0x00000000
T2CBC 14651:895.704 JLINK_ReadReg(FPS11)
T2CBC 14651:895.714 - 0.014ms returns 0x00000000
T2CBC 14651:895.727 JLINK_ReadReg(FPS12)
T2CBC 14651:895.736 - 0.014ms returns 0x00000000
T2CBC 14651:895.750 JLINK_ReadReg(FPS13)
T2CBC 14651:895.760 - 0.014ms returns 0x00000000
T2CBC 14651:895.773 JLINK_ReadReg(FPS14)
T2CBC 14651:895.782 - 0.014ms returns 0x00000000
T2CBC 14651:895.797 JLINK_ReadReg(FPS15)
T2CBC 14651:895.807 - 0.014ms returns 0x00000000
T2CBC 14651:895.821 JLINK_ReadReg(FPS16)
T2CBC 14651:895.830 - 0.014ms returns 0x00000000
T2CBC 14651:895.843 JLINK_ReadReg(FPS17)
T2CBC 14651:895.853 - 0.014ms returns 0x00000000
T2CBC 14651:895.865 JLINK_ReadReg(FPS18)
T2CBC 14651:895.875 - 0.014ms returns 0x00000000
T2CBC 14651:895.889 JLINK_ReadReg(FPS19)
T2CBC 14651:895.899 - 0.014ms returns 0x00000000
T2CBC 14651:895.911 JLINK_ReadReg(FPS20)
T2CBC 14651:895.921 - 0.014ms returns 0x00000000
T2CBC 14651:895.934 JLINK_ReadReg(FPS21)
T2CBC 14651:895.943 - 0.014ms returns 0x00000000
T2CBC 14651:895.958 JLINK_ReadReg(FPS22)
T2CBC 14651:895.967 - 0.014ms returns 0x00000000
T2CBC 14651:895.980 JLINK_ReadReg(FPS23)
T2CBC 14651:895.990 - 0.014ms returns 0x00000000
T2CBC 14651:896.004 JLINK_ReadReg(FPS24)
T2CBC 14651:896.014 - 0.014ms returns 0x00000000
T2CBC 14651:896.028 JLINK_ReadReg(FPS25)
T2CBC 14651:896.038 - 0.014ms returns 0x00000000
T2CBC 14651:896.050 JLINK_ReadReg(FPS26)
T2CBC 14651:896.060 - 0.014ms returns 0x00000000
T2CBC 14651:896.073 JLINK_ReadReg(FPS27)
T2CBC 14651:896.082 - 0.014ms returns 0x00000000
T2CBC 14651:896.096 JLINK_ReadReg(FPS28)
T2CBC 14651:896.106 - 0.014ms returns 0x00000000
T2CBC 14651:896.119 JLINK_ReadReg(FPS29)
T2CBC 14651:896.128 - 0.014ms returns 0x00000000
T2CBC 14651:896.143 JLINK_ReadReg(FPS30)
T2CBC 14651:896.152 - 0.014ms returns 0x00000000
T2CBC 14651:896.165 JLINK_ReadReg(FPS31)
T2CBC 14651:896.175 - 0.014ms returns 0x00000000
T71D4 14651:897.343   JLINK_ReadMemU32(0xE0001004, 0x0001 Items, ...)
T71D4 14651:897.374    -- CPU_ReadMem(4 bytes @ 0xE0001004)
T71D4 14651:897.990   Data:  CD 47 00 00
T71D4 14651:898.041    - DWT_CYCCNT
T71D4 14651:898.055 - 0.719ms returns 1
T71D4 14651:899.415   JLINK_ReadMemEx(0x2000003C, 0x0004 Bytes, ..., Flags = 0x02000000)
T71D4 14651:899.449    -- CPU_ReadMem(64 bytes @ 0x20000000)
T71D4 14651:900.826    -- Updating C cache (64 bytes @ 0x20000000)
T71D4 14651:900.848    -- Read from C cache (4 bytes @ 0x2000003C)
T71D4 14651:900.864   Data:  00 00 00 00
T71D4 14651:900.878 - 1.470ms returns 0x04
T71D4 14651:901.210   JLINK_ReadMemEx(0x40009000, 0x0010 Bytes, ..., Flags = 0x02000004)
T71D4 14651:901.240    -- CPU_ReadMem(16 bytes @ 0x40009000)
T71D4 14651:901.990   Data:  00 00 00 00 00 00 00 00 00 00 00 00 00 00 00 00
T71D4 14651:902.010 - 0.806ms returns 0x10
T71D4 14651:902.033   JLINK_ReadMemEx(0x40009010, 0x0004 Bytes, ..., Flags = 0x02000004)
T71D4 14651:902.052    -- CPU_ReadMem(4 bytes @ 0x40009010)
T71D4 14651:902.554   Data:  00 00 00 00
T71D4 14651:902.579 - 0.552ms returns 0x04
T71D4 14651:902.601   JLINK_ReadMemEx(0x40009040, 0x0014 Bytes, ..., Flags = 0x02000004)
T71D4 14651:902.621    -- CPU_ReadMem(20 bytes @ 0x40009040)
T71D4 14651:903.428   Data:  00 00 00 00 00 00 00 00 00 00 00 00 00 00 00 00 ...
T71D4 14651:903.448 - 0.853ms returns 0x14
T71D4 14651:903.467   JLINK_ReadMemEx(0x40009054, 0x0004 Bytes, ..., Flags = 0x02000004)
T71D4 14651:903.487    -- CPU_ReadMem(4 bytes @ 0x40009054)
T71D4 14651:904.066   Data:  00 00 00 00
T71D4 14651:904.085 - 0.624ms returns 0x04
T71D4 14651:904.104   JLINK_ReadMemEx(0x40009140, 0x0014 Bytes, ..., Flags = 0x02000004)
T71D4 14651:904.123    -- CPU_ReadMem(20 bytes @ 0x40009140)
T71D4 14651:904.904   Data:  00 00 00 00 00 00 00 00 00 00 00 00 00 00 00 00 ...
T71D4 14651:904.923 - 0.825ms returns 0x14
T71D4 14651:904.942   JLINK_ReadMemEx(0x40009154, 0x0004 Bytes, ..., Flags = 0x02000004)
T71D4 14651:904.961    -- CPU_ReadMem(4 bytes @ 0x40009154)
T71D4 14651:905.548   Data:  00 00 00 00
T71D4 14651:905.567 - 0.631ms returns 0x04
T71D4 14651:905.586   JLINK_ReadMemEx(0x40009200, 0x0004 Bytes, ..., Flags = 0x02000004)
T71D4 14651:905.604    -- CPU_ReadMem(4 bytes @ 0x40009200)
T71D4 14651:906.173   Data:  00 00 00 00
T71D4 14651:906.192 - 0.612ms returns 0x04
T71D4 14651:906.210   JLINK_ReadMemEx(0x40009304, 0x0004 Bytes, ..., Flags = 0x02000004)
T71D4 14651:906.229    -- CPU_ReadMem(4 bytes @ 0x40009304)
T71D4 14651:906.741   Data:  00 00 00 00
T71D4 14651:906.765 - 0.561ms returns 0x04
T71D4 14651:906.786   JLINK_ReadMemEx(0x40009308, 0x0004 Bytes, ..., Flags = 0x02000004)
T71D4 14651:906.806    -- CPU_ReadMem(4 bytes @ 0x40009308)
T71D4 14651:907.423   Data:  00 00 00 00
T71D4 14651:907.442 - 0.663ms returns 0x04
T71D4 14651:907.461   JLINK_ReadMemEx(0x40009504, 0x0004 Bytes, ..., Flags = 0x02000004)
T71D4 14651:907.480    -- CPU_ReadMem(4 bytes @ 0x40009504)
T71D4 14651:908.033   Data:  00 00 00 00
T71D4 14651:908.052 - 0.597ms returns 0x04
T71D4 14651:908.071   JLINK_ReadMemEx(0x40009508, 0x0004 Bytes, ..., Flags = 0x02000004)
T71D4 14651:908.090    -- CPU_ReadMem(4 bytes @ 0x40009508)
T71D4 14651:908.610   Data:  00 00 00 00
T71D4 14651:908.638 - 0.573ms returns 0x04
T71D4 14651:908.657   JLINK_ReadMemEx(0x40009510, 0x0004 Bytes, ..., Flags = 0x02000004)
T71D4 14651:908.677    -- CPU_ReadMem(4 bytes @ 0x40009510)
T71D4 14651:909.275   Data:  04 00 00 00
T71D4 14651:909.294 - 0.643ms returns 0x04
T71D4 14651:909.312   JLINK_ReadMemEx(0x40009540, 0x0014 Bytes, ..., Flags = 0x02000004)
T71D4 14651:909.331    -- CPU_ReadMem(20 bytes @ 0x40009540)
T71D4 14651:910.134   Data:  00 00 00 00 00 00 00 00 00 00 00 00 00 00 00 00 ...
T71D4 14651:910.153 - 0.846ms returns 0x14
T71D4 14651:910.171   JLINK_ReadMemEx(0x40009554, 0x0004 Bytes, ..., Flags = 0x02000004)
T71D4 14651:910.190    -- CPU_ReadMem(4 bytes @ 0x40009554)
T71D4 14651:910.782   Data:  00 00 00 00
T71D4 14651:910.801 - 0.635ms returns 0x04
T71D4 14651:914.489   JLINK_ReadMemEx(0x00000A14, 0x003C Bytes, ..., Flags = 0x02000000)
T71D4 14651:914.531    -- CPU_ReadMem(128 bytes @ 0x00000A00)
T71D4 14651:916.759    -- Updating C cache (128 bytes @ 0x00000A00)
T71D4 14651:916.784    -- Read from C cache (60 bytes @ 0x00000A14)
T71D4 14651:916.802   Data:  E8 D3 BD E8 F8 83 00 00 2D E9 F0 47 39 4E 00 27 ...
T71D4 14651:916.816 - 2.333ms returns 0x3C
T71D4 14651:916.834   JLINK_ReadMemEx(0x00000A14, 0x0002 Bytes, ..., Flags = 0x02000000)
T71D4 14651:916.850    -- Read from C cache (2 bytes @ 0x00000A14)
T71D4 14651:916.865   Data:  E8 D3
T71D4 14651:916.880 - 0.052ms returns 0x02
T71D4 14651:916.895   JLINK_ReadMemEx(0x00000A16, 0x0002 Bytes, ..., Flags = 0x02000000)
T71D4 14651:916.910    -- Read from C cache (2 bytes @ 0x00000A16)
T71D4 14651:916.924   Data:  BD E8
T71D4 14651:916.938 - 0.049ms returns 0x02
T71D4 14651:916.954   JLINK_ReadMemEx(0x00000A16, 0x0002 Bytes, ..., Flags = 0x02000000)
T71D4 14651:916.969    -- Read from C cache (2 bytes @ 0x00000A16)
T71D4 14651:916.983   Data:  BD E8
T71D4 14651:916.998 - 0.049ms returns 0x02
T71D4 14651:917.011   JLINK_ReadMemEx(0x00000A18, 0x003C Bytes, ..., Flags = 0x02000000)
T71D4 14651:917.027    -- Read from C cache (60 bytes @ 0x00000A18)
T71D4 14651:917.042   Data:  F8 83 00 00 2D E9 F0 47 39 4E 00 27 80 46 3D 46 ...
T71D4 14651:917.056 - 0.050ms returns 0x3C
T71D4 14651:917.070   JLINK_ReadMemEx(0x00000A18, 0x0002 Bytes, ..., Flags = 0x02000000)
T71D4 14651:917.085    -- Read from C cache (2 bytes @ 0x00000A18)
T71D4 14651:917.100   Data:  F8 83
T71D4 14651:917.115 - 0.050ms returns 0x02
T71D4 14651:917.129   JLINK_ReadMemEx(0x00000A1A, 0x0002 Bytes, ..., Flags = 0x02000000)
T71D4 14651:917.147    -- Read from C cache (2 bytes @ 0x00000A1A)
T71D4 14651:917.173   Data:  00 00
T71D4 14651:917.191 - 0.067ms returns 0x02
T71D4 14651:917.206   JLINK_ReadMemEx(0x00000A1C, 0x003C Bytes, ..., Flags = 0x02000000)
T71D4 14651:917.222    -- Read from C cache (60 bytes @ 0x00000A1C)
T71D4 14651:917.237   Data:  2D E9 F0 47 39 4E 00 27 80 46 3D 46 DF F8 E0 90 ...
T71D4 14651:917.251 - 0.050ms returns 0x3C
T71D4 14651:917.264   JLINK_ReadMemEx(0x00000A1C, 0x0002 Bytes, ..., Flags = 0x02000000)
T71D4 14651:917.279    -- Read from C cache (2 bytes @ 0x00000A1C)
T71D4 14651:917.293   Data:  2D E9
T71D4 14651:917.307 - 0.048ms returns 0x02
T71D4 14651:917.321   JLINK_ReadMemEx(0x00000A1C, 0x003C Bytes, ..., Flags = 0x02000000)
T71D4 14651:917.335    -- Read from C cache (60 bytes @ 0x00000A1C)
T71D4 14651:917.350   Data:  2D E9 F0 47 39 4E 00 27 80 46 3D 46 DF F8 E0 90 ...
T71D4 14651:917.364 - 0.048ms returns 0x3C
T71D4 14651:917.377   JLINK_ReadMemEx(0x00000A1C, 0x0002 Bytes, ..., Flags = 0x02000000)
T71D4 14651:917.391    -- Read from C cache (2 bytes @ 0x00000A1C)
T71D4 14651:917.405   Data:  2D E9
T71D4 14651:917.419 - 0.047ms returns 0x02
T71D4 14651:917.432   JLINK_ReadMemEx(0x00000A1E, 0x0002 Bytes, ..., Flags = 0x02000000)
T71D4 14651:917.447    -- Read from C cache (2 bytes @ 0x00000A1E)
T71D4 14651:917.460   Data:  F0 47
T71D4 14651:917.474 - 0.047ms returns 0x02
T71D4 14651:917.488   JLINK_ReadMemEx(0x00000A20, 0x003C Bytes, ..., Flags = 0x02000000)
T71D4 14651:917.502    -- Read from C cache (60 bytes @ 0x00000A20)
T71D4 14651:917.517   Data:  39 4E 00 27 80 46 3D 46 DF F8 E0 90 D6 F8 08 A0 ...
T71D4 14651:917.531 - 0.048ms returns 0x3C
T71D4 14651:917.544   JLINK_ReadMemEx(0x00000A20, 0x0002 Bytes, ..., Flags = 0x02000000)
T71D4 14651:917.558    -- Read from C cache (2 bytes @ 0x00000A20)
T71D4 14651:917.572   Data:  39 4E
T71D4 14651:917.586 - 0.047ms returns 0x02
T71D4 14651:917.599   JLINK_ReadMemEx(0x00000A22, 0x0002 Bytes, ..., Flags = 0x02000000)
T71D4 14651:917.613    -- Read from C cache (2 bytes @ 0x00000A22)
T71D4 14651:917.627   Data:  00 27
T71D4 14651:917.641 - 0.047ms returns 0x02
T71D4 14651:917.654   JLINK_ReadMemEx(0x00000A22, 0x0002 Bytes, ..., Flags = 0x02000000)
T71D4 14651:917.668    -- Read from C cache (2 bytes @ 0x00000A22)
T71D4 14651:917.682   Data:  00 27
T71D4 14651:917.696 - 0.047ms returns 0x02
T71D4 14651:917.709   JLINK_ReadMemEx(0x00000A24, 0x003C Bytes, ..., Flags = 0x02000000)
T71D4 14651:917.729    -- Read from C cache (60 bytes @ 0x00000A24)
T71D4 14651:917.744   Data:  80 46 3D 46 DF F8 E0 90 D6 F8 08 A0 57 E0 03 D0 ...
T71D4 14651:917.758 - 0.053ms returns 0x3C
T71D4 14651:917.771   JLINK_ReadMemEx(0x00000A24, 0x0002 Bytes, ..., Flags = 0x02000000)
T71D4 14651:917.785    -- Read from C cache (2 bytes @ 0x00000A24)
T71D4 14651:917.799   Data:  80 46
T71D4 14651:917.813 - 0.047ms returns 0x02
T71D4 14651:917.831   JLINK_ReadMemEx(0x00000A24, 0x003C Bytes, ..., Flags = 0x02000000)
T71D4 14651:917.845    -- Read from C cache (60 bytes @ 0x00000A24)
T71D4 14651:917.860   Data:  80 46 3D 46 DF F8 E0 90 D6 F8 08 A0 57 E0 03 D0 ...
T71D4 14651:917.874 - 0.067ms returns 0x3C
T71D4 14651:917.905   JLINK_ReadMemEx(0x00000A24, 0x0002 Bytes, ..., Flags = 0x02000000)
T71D4 14651:917.920    -- Read from C cache (2 bytes @ 0x00000A24)
T71D4 14651:917.934   Data:  80 46
T71D4 14651:917.948 - 0.047ms returns 0x02
T71D4 14651:917.961   JLINK_ReadMemEx(0x00000A26, 0x0002 Bytes, ..., Flags = 0x02000000)
T71D4 14651:917.976    -- Read from C cache (2 bytes @ 0x00000A26)
T71D4 14651:917.990   Data:  3D 46
T71D4 14651:918.003 - 0.047ms returns 0x02
T71D4 14651:918.017   JLINK_ReadMemEx(0x00000A26, 0x0002 Bytes, ..., Flags = 0x02000000)
T71D4 14651:918.031    -- Read from C cache (2 bytes @ 0x00000A26)
T71D4 14651:918.045   Data:  3D 46
T71D4 14651:918.059 - 0.048ms returns 0x02
T71D4 14651:918.072   JLINK_ReadMemEx(0x00000A28, 0x003C Bytes, ..., Flags = 0x02000000)
T71D4 14651:918.087    -- Read from C cache (60 bytes @ 0x00000A28)
T71D4 14651:918.102   Data:  DF F8 E0 90 D6 F8 08 A0 57 E0 03 D0 04 46 D0 F8 ...
